time,V_C,I_L,V_IN,V_C
0.0,0.0,0.0,5.531944969212871,0.0
1e-06,0.1987205079920426,0.09723185517693543,-7.635758305121222,0.1987205079920426
2e-06,0.25367499221668466,-0.07633697287468284,-19.38170701758593,0.25367499221668466
3e-06,-0.733178907629338,-0.44884592605042595,-21.566585221131255,-0.733178907629338
4e-06,-3.074801482596194,-0.8191346143187661,-25.55224842577278,-3.074801482596194
4.9999999999999996e-06,-6.791051769924199,-1.179147054709715,-29.561003533374226,-6.791051769924199
6e-06,-11.77811834933089,-1.504536503379387,-29.73535276877131,-11.77811834933089
7e-06,-17.776886986317276,-1.70793541070903,-34.63830949071618,-17.776886986317276
8e-06,-24.397280353249172,-1.8628631339410253,-35.99393909364319,-24.397280353249172
9e-06,-31.428755325614716,-1.903008982691635,-31.244109922689127,-31.428755325614716
9.999999999999999e-06,-38.20632880813614,-1.7311923073591662,-33.96284091935951,-38.20632880813614
1.1e-05,-44.187175871802296,-1.4913326128045183,-35.96155616371724,-44.187175871802296
1.2e-05,-49.1727049799976,-1.1886449032250024,-33.945174777985024,-49.1727049799976
1.3e-05,-52.85882931193362,-0.78675741663409,-29.01697702913767,-52.85882931193362
1.4e-05,-54.8457717923522,-0.27320422494009067,-32.500853925325146,-54.8457717923522
1.4999999999999999e-05,-54.98329760651204,0.17901603754242973,-42.45043454004288,-54.98329760651204
1.6e-05,-53.865378332839974,0.3815893858946273,-47.38407697367514,-53.865378332839974
1.7e-05,-52.27966436219171,0.4700883633330556,-47.47197952003749,-52.27966436219171
1.8e-05,-50.43599052211398,0.5227382062640678,-44.3654056228293,-50.43599052211398
1.8999999999999998e-05,-48.3519154946203,0.611377620632159,-39.99581156410596,-48.3519154946203
1.9999999999999998e-05,-45.88310275437204,0.7155094424146168,-38.91254199892775,-45.88310275437204
2.1e-05,-43.080380701654576,0.7975491576953412,-36.517548404424794,-43.080380701654576
2.2e-05,-40.01381948606398,0.847175454860435,-33.19197812823338,-40.01381948606398
2.3e-05,-36.80389717875943,0.8854559664302736,-30.869339045181363,-36.80389717875943
2.4e-05,-33.44973133935572,0.9541871084423885,-18.580564068407806,-33.44973133935572
2.4999999999999998e-05,-29.520663064077556,1.189347673787419,-5.922933885215464,-29.520663064077556
2.6e-05,-24.406863339325202,1.5774508948060428,-1.3651299882298664,-24.406863339325202
2.7e-05,-17.97682050042655,1.8649569007011104,2.680924209479984,-17.97682050042655
2.8e-05,-10.68861383539853,2.0598459484408878,2.296439304020141,-10.68861383539853
2.9e-05,-2.90208949907459,2.120538805548754,6.729559870255578,-2.90208949907459
2.9999999999999997e-05,4.956327792422663,2.118738645566751,15.99195427733013,4.956327792422663
3.1e-05,12.898723228534639,2.171286361710324,20.94720856816781,12.898723228534639
3.2e-05,20.89515489588645,2.118621952555727,29.034926922105257,20.89515489588645
3.2999999999999996e-05,28.63774266939749,2.0664858284301504,39.14006316284132,28.63774266939749
3.4e-05,36.435031945124344,2.184987949721461,53.65854790987106,36.435031945124344
3.5e-05,44.810195287270744,2.3193305506425976,74.39740344887679,44.810195287270744
3.6e-05,54.037759953977144,2.697477243276277,88.27021173614884,54.037759953977144
3.7e-05,64.87179240790174,3.1198831837262655,91.10688462234182,64.87179240790174
3.7999999999999995e-05,76.88760905825878,3.305169820664344,84.43773965710604,76.88760905825878
3.9e-05,88.84141261373598,3.0726828593449524,72.17134717234002,88.84141261373598
3.9999999999999996e-05,98.98081096447127,2.3321678546513853,60.73304837001304,98.98081096447127
4.1e-05,105.82151185260197,1.3129389465514283,53.250661229400706,105.82151185260197
4.2e-05,108.62597124254883,0.20875824879501748,49.82991293253404,108.62597124254883
4.2999999999999995e-05,107.31453373596035,-0.9156873343556826,51.20950186391389,107.31453373596035
4.4e-05,102.01560918345025,-1.9003514833833313,54.4898147213558,102.01560918345025
4.4999999999999996e-05,93.54343662454023,-2.6239336841101175,63.41826254569572,93.54343662454023
4.6e-05,83.09869433320532,-2.9582039161752003,73.19211826259232,83.09869433320532
4.7e-05,72.21518171827104,-2.8145138789638913,94.43349969082547,72.21518171827104
4.8e-05,62.964714754193565,-2.1267746876720106,113.92985161958745,62.964714754193565
4.9e-05,56.97118625788598,-1.0260452176289403,120.70546910340012,56.97118625788598
4.9999999999999996e-05,55.67247322764866,0.32404863200177614,117.16713518102688,55.67247322764866
5.1e-05,59.1400788681773,1.4910570435784802,113.22187463126026,59.1400788681773
5.2e-05,66.40615200688693,2.3812778668959362,108.54239030815307,66.40615200688693
5.3e-05,76.44143695678505,2.9982632676943153,107.2767067401024,76.44143695678505
5.4e-05,88.2243523743515,3.3225078777496964,107.63453332301145,88.2243523743515
5.4999999999999995e-05,100.69173102024129,3.359534570566805,104.76848458496161,100.69173102024129
5.6e-05,112.77399717946783,3.1268440966618964,93.67664996995995,112.77399717946783
5.6999999999999996e-05,123.27810113649643,2.462782783643395,73.65326998049812,123.27810113649643
5.8e-05,130.0888931986086,1.1117846938180098,54.297898933582836,130.0888931986086
5.9e-05,131.29813319510924,-0.4493065546551729,43.3265161950922,131.29813319510924
5.9999999999999995e-05,126.60609991339575,-2.0823648052862875,34.77865691738161,126.60609991339575
6.1e-05,115.83047691672029,-3.745261878081223,21.502012540082696,115.83047691672029
6.2e-05,99.05823457763206,-5.268651919738535,11.184805259297896,99.05823457763206
6.3e-05,77.10033216511222,-6.530488269562348,4.346856499972635,77.10033216511222
6.4e-05,51.28289432587691,-7.3331969167561235,-4.910930454370507,51.28289432587691
6.5e-05,23.24976126001723,-7.735595690056566,-11.867505990209752,23.24976126001723
6.599999999999999e-05,-5.480741087501691,-7.7162111620735505,-17.957905632330203,-5.480741087501691
6.7e-05,-33.27799828228099,-7.209141422448766,-27.75620412201416,-33.27799828228099
6.8e-05,-58.560923188535426,-6.394011714318845,-33.146305995327275,-58.560923188535426
6.9e-05,-80.34598119477302,-5.327722773112847,-31.39436381067068,-80.34598119477302
7e-05,-97.63619044619908,-3.9310556562339958,-21.32321665286659,-97.63619044619908
7.099999999999999e-05,-108.81146065449684,-2.0727157650626444,-8.355324971141352,-108.81146065449684
7.2e-05,-112.57413214852043,0.0833664373358669,-6.145717482094154,-112.57413214852043
7.3e-05,-108.4217005955901,2.1245161712138194,-10.489915023709282,-108.4217005955901
7.4e-05,-97.27287241164997,3.83086505313185,-11.126530540747003,-97.27287241164997
7.5e-05,-80.60615580011073,5.09556161169108,-7.172236529728395,-80.60615580011073
7.599999999999999e-05,-59.936416774070096,6.038971892613724,5.0144748882987376,-59.936416774070096
7.7e-05,-35.56207598184275,7.102164291164086,36.448707610347384,-35.56207598184275
7.8e-05,-7.705822630672245,7.925235729303537,68.68145928079569,-7.705822630672245
7.9e-05,23.23733034456331,8.801870096323478,99.54425013196678,23.23733034456331
7.999999999999999e-05,57.22925061044554,9.454039106875898,128.07246870067917,57.22925061044554
8.099999999999999e-05,93.08265233754574,9.881499871545188,151.0176739391222,93.08265233754574
8.2e-05,130.11674885137245,10.076415117844036,165.3047030860896,130.11674885137245
8.3e-05,167.11033544267661,9.7841556903261,175.28726407464563,167.11033544267661
8.4e-05,201.925216999211,8.929703444886023,175.67811312518126,201.925216999211
8.499999999999999e-05,232.69426773137312,7.598977449698882,169.57739107551933,232.69426773137312
8.599999999999999e-05,257.63237365942933,5.726864188484022,158.94125759885844,257.63237365942933
8.7e-05,274.49028646927655,3.3426472459714667,151.21096173230254,274.49028646927655
8.8e-05,281.9015489122217,0.6751723982620348,152.53565903776573,281.9015489122217
8.9e-05,279.6409890411814,-1.8530586275071266,144.30754777613444,279.6409890411814
8.999999999999999e-05,268.2227933980573,-4.300350094596025,134.4253551816372,268.2227933980573
9.099999999999999e-05,248.07167703099256,-6.531914435094943,115.87461509131029,248.07167703099256
9.2e-05,220.12521095629614,-8.507442358954606,96.87024781976083,220.12521095629614
9.3e-05,185.54863126763598,-10.089862175867239,86.34908128470313,185.54863126763598
9.4e-05,146.1099905381561,-11.09058648067178,77.02368896481221,146.1099905381561
9.499999999999999e-05,104.08115016642999,-11.49549961056697,61.77312981103698,104.08115016642999
9.6e-05,61.795796887983954,-11.238431371846957,45.01095055004147,61.795796887983954
9.7e-05,21.638639984712505,-10.400115396811385,33.4493537400043,21.638639984712505
9.8e-05,-14.915812361203109,-9.27224899154458,21.428933041043216,-14.915812361203109
9.9e-05,-46.54656549923808,-7.727550460781529,12.432354831901,-46.54656549923808
9.999999999999999e-05,-71.73083692018308,-5.839890997981272,5.091388088047191,-71.73083692018308
0.000101,-89.69810591964315,-3.8417218320505633,-0.7927729947476271,-89.69810591964315
0.000102,-100.12432139908614,-1.7853860381695734,6.664388418156162,-100.12432139908614
0.000103,-102.75608229539142,0.3897642001883037,15.252852076794355,-102.75608229539142
0.000104,-97.31943336430965,2.5135243320900464,11.349209697566597,-97.31943336430965
0.00010499999999999999,-84.44726542236188,4.359609877899575,5.721546608856892,-84.44726542236188
0.000106,-65.62536770820422,5.699007059546059,-0.6801644743863621,-65.62536770820422
0.000107,-43.019283952044994,6.414567810694151,-2.7609818043116867,-43.019283952044994
0.000108,-18.798528659017133,6.573389139364591,-7.662289275599213,-18.798528659017133
0.00010899999999999999,4.990965696505583,6.175156888627545,-12.030605905195193,4.990965696505583
0.00010999999999999999,26.308883029119336,5.2731776095759235,-11.152339901006616,26.308883029119336
0.000111,43.662617361047715,4.069603008187301,-6.687995018787661,43.662617361047715
0.000112,56.27575365527747,2.7168095638430136,-9.194403471378333,56.27575365527747
0.000113,63.577534670752584,1.2066510876545178,-14.912457132100297,63.577534670752584
0.00011399999999999999,65.08759981835432,-0.41846656861186693,-22.832218665383248,65.08759981835432
0.00011499999999999999,60.427225765229316,-2.084700156318555,-29.826881169829946,60.427225765229316
0.000116,49.80528738042571,-3.6030641491577713,-25.03191287677418,49.80528738042571
0.000117,34.29662176257794,-4.691435427796966,-18.405234405926766,34.29662176257794
0.000118,15.690307157199598,-5.2769854430202665,-18.155798198364703,15.690307157199598
0.00011899999999999999,-4.243682736216336,-5.3970789103183625,-11.08940188256774,-4.243682736216336
0.00011999999999999999,-23.681611890193874,-5.009060571851482,8.612441035545778,-23.681611890193874
0.000121,-40.37801479706905,-3.9051665570073766,29.12334171119437,-40.37801479706905
0.000122,-51.75001688520553,-2.1607725530351947,36.06022646202941,-51.75001688520553
0.00012299999999999998,-56.24603952271794,-0.27515711678427757,37.79846683202385,-56.24603952271794
0.000124,-53.77564959323897,1.6012096740811184,43.611072855569944,-53.77564959323897
0.000125,-44.57266621638882,3.3262533932214544,45.464938528015736,-44.57266621638882
0.000126,-29.504372826977253,4.755695290529545,48.62003960267663,-29.504372826977253
0.000127,-9.807122152117174,5.807139293299627,53.43861044045023,-9.807122152117174
0.000128,13.015377012734948,6.464876930934022,51.80773501810545,13.015377012734948
0.000129,37.40787993706612,6.5789276646962564,43.33658925577038,37.40787993706612
0.00013,61.00885326471839,6.042817460658756,16.961619826199424,61.00885326471839
0.00013099999999999999,80.95982983818382,4.663735906861142,-12.962746702558334,80.95982983818382
0.00013199999999999998,94.54627718776817,2.5095167216468166,-39.385365433633126,94.54627718776817
0.000133,98.57128951822234,-0.37438086475718635,-62.9226652905384,98.57128951822234
0.000134,91.37884633814576,-3.454105480326571,-73.91353117046978,91.37884633814576
0.000135,73.10697278276167,-6.393156855674679,-87.00447617144502,73.10697278276167
0.000136,44.524928914970104,-8.947751774758853,-99.03059991120914,44.524928914970104
0.000137,7.532162090518298,-10.905378469829147,-103.74449906445365,7.532162090518298
0.000138,-35.14745588080608,-11.993857482010288,-99.30663173735093,-35.14745588080608
0.000139,-80.05938794928795,-12.111596226324954,-98.392874348648,-80.05938794928795
0.00014,-123.67307870616277,-11.293102099715497,-91.26311276012174,-123.67307870616277
0.00014099999999999998,-162.6078208070433,-9.56968144428211,-84.12588751112052,-162.6078208070433
0.00014199999999999998,-193.7459694595281,-7.161124304135996,-81.86788954611984,-193.7459694595281
0.000143,-215.10863775596755,-4.320011269593084,-77.03482411628065,-215.10863775596755
0.000144,-225.45873911287165,-1.233166608218017,-71.17146646327052,-225.45873911287165
0.000145,-224.25189901274538,1.85890140530703,-68.36639730157763,-224.25189901274538
0.000146,-212.01787944110066,4.688375493409378,-65.90603301653817,-212.01787944110066
0.000147,-190.10457441265734,7.05418389968499,-64.65120493508259,-190.10457441265734
0.000148,-160.52520676340066,8.809501356690681,-61.36261549029551,-160.52520676340066
0.000149,-125.55097896549776,9.974019680942861,-51.65113260309533,-125.55097896549776
0.00015,-87.48265368711404,10.475932924202102,-35.78518663916553,-87.48265368711404
0.00015099999999999998,-48.64136831003116,10.443970316058886,-24.94990483550804,-48.64136831003116
0.00015199999999999998,-10.509479510614668,10.056542815959107,-9.23729340411231,-10.509479510614668
0.000153,25.269317778767835,9.159337722167763,-5.591111385393558,25.269317778767835
0.000154,56.648689870213005,7.684788233036037,-5.213202144854881,56.648689870213005
0.000155,81.73438554416762,5.813520458429698,-1.4024344696193136,81.73438554416762
0.000156,99.36640864607305,3.7062527216398804,2.8095704947381677,99.36640864607305
0.000157,109.04922756947728,1.5110726579032234,2.528600592436704,109.04922756947728
0.000158,110.5220305268401,-0.705313166355098,-0.3752204729614722,110.5220305268401
0.000159,104.01410273608673,-2.782944029566658,-6.336939787576636,104.01410273608673
0.00015999999999999999,90.20984753181101,-4.640801916352157,-13.220365386011315,90.20984753181101
0.00016099999999999998,70.05632867634856,-6.159367854683631,-13.65003275189752,70.05632867634856
0.00016199999999999998,45.132251200633725,-7.191029884624314,-11.699926096929435,45.132251200633725
0.000163,17.497623122280565,-7.619592178371881,-12.034696023538157,17.497623122280565
0.000164,-10.518808733566438,-7.415069857222539,-7.567248610294048,-10.518808733566438
0.000165,-36.74308821696447,-6.660807403528049,-0.10337218205928582,-36.74308821696447
0.000166,-59.24401067244739,-5.370468927570389,11.174931565352358,-59.24401067244739
0.000167,-75.68167066260028,-3.4446911784730982,22.557396346607938,-75.68167066260028
0.000168,-84.34465017924688,-1.2153310821402918,26.003741227096,-84.34465017924688
0.000169,-84.73036831401426,1.0067317715869657,25.046586481088365,-84.73036831401426
0.00016999999999999999,-77.09934279119689,3.066233192459645,28.115787502626183,-77.09934279119689
0.00017099999999999998,-62.40067221968602,4.800398164103206,34.087197577230114,-62.40067221968602
0.00017199999999999998,-41.95794235761146,6.18758470466482,38.67960218409914,-41.95794235761146
0.000173,-17.015815379596923,7.200236044619103,43.8215634536816,-17.015815379596923
0.000174,10.762456687578855,7.708009051211681,53.02860237838348,10.762456687578855
0.000175,39.53141003224484,7.764427832813613,58.01293143955766,39.53141003224484
0.000176,67.76579623288376,7.409367799766508,62.51887621945977,67.76579623288376
0.000177,93.90867544493605,6.629354781337878,63.91309931849827,93.90867544493605
0.000178,116.35155432696104,5.424179100122899,63.87701273039562,116.35155432696104
0.000179,133.800702316112,3.9638829039858314,69.54113765910931,133.800702316112
0.00017999999999999998,145.53975906843172,2.368563304685072,79.47414902378517,145.53975906843172
0.00018099999999999998,151.47884454657705,0.8871704161314198,92.68901654309929,151.47884454657705
0.00018199999999999998,152.45276176777253,-0.3343843547913926,108.86019638584955,152.45276176777253
0.000183,149.29639948689612,-1.2791511521322754,121.49480101157963,149.29639948689612
0.000184,143.62753632006786,-1.7166557910682205,131.78778355499188,143.62753632006786
0.000185,137.12844417916696,-1.7370012018830994,136.50215045494758,137.12844417916696
0.000186,130.9265727645023,-1.5936551949971236,138.5308140627607,130.9265727645023
0.000187,125.53583798817318,-1.294619197784152,137.18837387497678,125.53583798817318
0.000188,121.38255085879035,-0.9467270998628358,134.77083984183824,121.38255085879035
0.00018899999999999999,118.48277895634958,-0.6210659108052151,132.53186686827857,118.48277895634958
0.00018999999999999998,116.77465536633939,-0.3128425000919182,127.66505510144178,116.77465536633939
0.00019099999999999998,116.08203013042856,-0.0540927202828026,130.48270783107765,116.08203013042856
0.000192,116.40924004035826,0.21327359552599606,125.41327099389233,116.40924004035826
0.000193,117.49050793675988,0.36607289648599217,113.03125237293777,117.49050793675988
0.000194,118.6728432109513,0.2572542640892684,107.60972088606363,118.6728432109513
0.000195,119.22001451021217,0.025519777800364435,108.20437704809362,119.22001451021217
0.000196,118.91368067968153,-0.17604518285740042,111.87348388437044,118.91368067968153
0.000197,118.0337182915185,-0.29061328986939394,116.61924935726297,118.0337182915185
0.000198,116.93447189732899,-0.29424533553943316,117.28195198103022,116.93447189732899
0.00019899999999999999,115.89403137428607,-0.2681918781874602,110.69941151160614,115.89403137428607
0.00019999999999999998,114.7282358134497,-0.39633531742361955,101.95946727859634,114.7282358134497
0.00020099999999999998,112.86446002230028,-0.6010539896741043,91.34134879714638,112.86446002230028
0.000202,110.05358781278225,-0.9411105812090509,85.94936969822595,110.05358781278225
0.000203,105.83717328536132,-1.3191414163604065,79.50546421788809,105.83717328536132
0.000204,100.20119506852674,-1.753360100425928,68.02866107657422,100.20119506852674
0.000205,92.77092685562454,-2.263041998927423,56.01649623925907,92.77092685562454
0.000206,83.30185529688487,-2.8506767123069805,47.048631296662094,83.30185529688487
0.000207,71.83434285226315,-3.331191816423308,35.73184641872531,71.83434285226315
0.000208,58.52610524398705,-3.8579678573496152,21.815556490429408,58.52610524398705
0.00020899999999999998,43.450488973867046,-4.26242685138643,11.732256878253741,43.450488973867046
0.00020999999999999998,27.072150990528932,-4.552789750891792,4.934267596162053,27.072150990528932
0.00021099999999999998,10.06979884788553,-4.596861021290898,-3.3447225012524013,10.06979884788553
0.000212,-6.860131885426856,-4.522879748233857,-12.282268294384778,-6.860131885426856
0.000213,-23.13500251412588,-4.233841522455726,-20.122080759090114,-23.13500251412588
0.000214,-38.223023853810645,-3.9158065686601664,-35.21177425191134,-38.223023853810645
0.000215,-52.004508993326176,-3.486946307922196,-56.270086199875,-52.004508993326176
0.000216,-64.32858217180798,-3.2287994592816247,-76.79026257157295,-64.32858217180798
0.000217,-76.26618230803435,-3.1783352040303097,-92.11790390141763,-76.26618230803435
0.00021799999999999999,-88.04107130935294,-3.198069552664942,-98.09252489836834,-88.04107130935294
0.00021899999999999998,-99.76917799097674,-3.094384846573725,-90.9155889471333,-99.76917799097674
0.00021999999999999998,-110.50111632935364,-2.640630610791643,-77.52658101522236,-110.50111632935364
0.00022099999999999998,-118.70857288684081,-1.7131621193591773,-65.91948778880335,-118.70857288684081
0.000222,-122.87791054022664,-0.5208145830598019,-57.82032596819003,-122.87791054022664
0.000223,-122.40344415285439,0.7838813268905511,-56.217716994563816,-122.40344415285439
0.000224,-117.21801972299137,1.9779003513400268,-55.732229961592864,-117.21801972299137
0.000225,-107.98085366763381,2.96907169759968,-55.415002665565694,-107.98085366763381
0.000226,-95.54517636846884,3.703854366094439,-53.92473927071283,-95.54517636846884
